<Qucs Dataset 26.1.1>
<indep time 180>
0.000000000000e+00
1.000000000000e-06
2.000000000000e-06
4.000000000000e-06
6.276183842167e-06
8.472925194689e-06
1.072028065895e-05
1.304977913154e-05
1.542008284309e-05
1.795696333610e-05
2.153223172176e-05
2.539900065882e-05
3.145404478431e-05
4.069279130629e-05
5.092089806979e-05
6.239158773764e-05
7.571143122569e-05
9.398192540166e-05
1.159992536347e-04
1.454047509397e-04
1.814440709890e-04
2.267085013272e-04
2.725644422907e-04
2.999075636290e-04
3.189471530804e-04
3.373909192243e-04
3.543900423953e-04
3.710902694903e-04
3.905190254584e-04
4.111558655895e-04
4.524295458517e-04
4.851807388954e-04
5.189848671750e-04
5.347269232100e-04
5.497777862236e-04
5.641262159760e-04
5.928230754808e-04
6.205382230467e-04
6.573782572029e-04
7.129321431511e-04
7.881028166190e-04
8.703401989534e-04
9.279476218167e-04
9.855078166923e-04
1.012599070002e-03
1.039074491012e-03
1.070457355715e-03
1.111049797845e-03
1.192234682106e-03
1.292234682106e-03
1.392234682106e-03
1.489878682669e-03
1.589878682669e-03
1.688482862826e-03
1.731205938191e-03
1.766344840987e-03
1.798684578749e-03
1.833294353899e-03
1.902513904198e-03
1.959699913032e-03
2.014837314097e-03
2.114541780107e-03
2.214541780107e-03
2.305267721845e-03
2.405267721845e-03
2.497295104198e-03
2.579017430984e-03
2.656193065654e-03
2.731406594083e-03
2.830231529807e-03
2.930231529807e-03
3.030231529807e-03
3.130231529807e-03
3.173031645128e-03
3.214880027507e-03
3.268623627535e-03
3.325269798624e-03
3.400232527185e-03
3.500232527185e-03
3.600232527185e-03
3.700232527185e-03
3.785390887354e-03
3.833436047117e-03
3.876767943630e-03
3.934349695217e-03
3.982244932353e-03
4.026934712184e-03
4.078116246847e-03
4.113833662596e-03
4.147434821949e-03
4.196998850315e-03
4.296126907046e-03
4.396126907046e-03
4.496126907046e-03
4.596126907046e-03
4.696126907046e-03
4.764164428681e-03
4.826991795629e-03
4.920021132948e-03
5.020021132948e-03
5.120021132948e-03
5.220021132948e-03
5.320021132948e-03
5.420021132948e-03
5.520021132948e-03
5.620021132948e-03
5.720021132948e-03
5.761461422954e-03
5.791196934046e-03
5.818452139633e-03
5.845636420524e-03
5.900004982306e-03
6.000004982306e-03
6.100004982306e-03
6.188254197199e-03
6.231313250851e-03
6.273533464376e-03
6.328180753959e-03
6.428180753959e-03
6.528180753959e-03
6.628180753959e-03
6.692739865941e-03
6.702233071130e-03
6.711563285841e-03
6.720079916935e-03
6.726784613382e-03
6.734493282707e-03
6.742434624858e-03
6.750112005475e-03
6.760909728288e-03
6.774558144840e-03
6.801854977944e-03
6.839747320896e-03
6.890027084460e-03
6.990027084460e-03
7.090027084460e-03
7.134736730590e-03
7.160913069935e-03
7.176024817436e-03
7.193082426703e-03
7.209405463772e-03
7.235319508450e-03
7.261495587121e-03
7.282096957392e-03
7.302056216879e-03
7.320392275788e-03
7.353061121887e-03
7.418398814083e-03
7.518398814083e-03
7.618398814083e-03
7.704226330225e-03
7.746280809663e-03
7.773709063445e-03
7.800012761837e-03
7.828182223623e-03
7.855617176104e-03
7.910487081065e-03
8.010487081065e-03
8.094793881055e-03
8.170671552297e-03
8.238304710185e-03
8.300502442289e-03
8.358971291873e-03
8.451333130596e-03
8.551333130596e-03
8.651333130596e-03
8.751333130596e-03
8.851333130596e-03
8.951333130596e-03
9.051333130596e-03
9.151333130596e-03
9.251333130596e-03
9.351333130596e-03
9.451333130596e-03
9.551333130596e-03
9.651333130596e-03
9.751333130596e-03
9.851333130596e-03
9.925666565298e-03
1.000000000000e-02
</indep>
<dep tran.v(input) time>
0.000000000000e+00
6.282143713681e-02
1.256503354836e-01
2.512900064286e-01
3.942049036450e-01
5.311436373820e-01
6.615429754366e-01
7.956643886876e-01
9.406041697215e-01
1.096606103876e+00
1.318658606673e+00
1.558414629130e+00
1.932798484631e+00
2.498583045785e+00
3.115277161742e+00
3.791379142319e+00
4.551659515948e+00
5.541515708904e+00
6.636452533686e+00
7.897584738276e+00
9.073042726049e+00
9.887831171718e+00
9.899983377009e+00
9.512029977416e+00
9.076594481648e+00
8.540506948495e+00
7.937282985697e+00
7.257311183705e+00
6.364811332808e+00
5.314852624492e+00
2.964447609377e+00
9.746624595035e-01
-1.113603592445e+00
-2.113167780106e+00
-3.009227670726e+00
-3.868816724559e+00
-5.448959765780e+00
-6.828476921805e+00
-8.314212605138e+00
-9.718184150088e+00
-9.709972658938e+00
-7.291293640957e+00
-4.384317666958e+00
-9.567762940902e-01
7.738212313853e-01
2.386604852057e+00
4.267604087553e+00
6.388581135518e+00
9.348039036872e+00
9.637773666342e+00
6.290279065139e+00
6.489239500085e-01
-5.325337865062e+00
-9.226620599959e+00
-9.927864054729e+00
-9.946891574462e+00
-9.535503798804e+00
-8.661761124207e+00
-5.763483226953e+00
-2.519416955135e+00
9.139399373066e-01
6.555674500933e+00
9.755249362532e+00
9.399475725714e+00
5.610541725603e+00
2.023746639209e-01
-4.755054146075e+00
-8.283555607503e+00
-9.918143981564e+00
-8.753145954845e+00
-4.257047878853e+00
1.868414559374e+00
7.266078494375e+00
8.848718032802e+00
9.740483199145e+00
9.939761397345e+00
8.894206544574e+00
5.874183502794e+00
-4.069340369216e-04
-5.864872913563e+00
-9.501041508139e+00
-9.749716811237e+00
-8.661094101217e+00
-6.988024031112e+00
-4.013015371273e+00
-1.121136364364e+00
1.661127977129e+00
4.689599085798e+00
6.530047290832e+00
7.978701042744e+00
9.436257234985e+00
9.586610453627e+00
6.069307754517e+00
2.524381888219e-01
-5.649618002751e+00
-9.420729676941e+00
-9.955693219162e+00
-8.852462575393e+00
-4.816470898387e+00
1.238893838702e+00
6.826502711545e+00
9.812943383788e+00
9.045792318322e+00
4.818292587173e+00
-1.249003817190e+00
-6.815482372423e+00
-9.811210571572e+00
-9.972473976230e+00
-9.667975886322e+00
-9.088134425263e+00
-8.249385669469e+00
-5.876484149365e+00
-4.481891659319e-03
5.853609279416e+00
9.244304365725e+00
9.926593141116e+00
9.891628176463e+00
8.816784774469e+00
4.361723207807e+00
-1.762125271344e+00
-7.175926792759e+00
-9.355068824648e+00
-9.525188348070e+00
-9.700795037662e+00
-9.805537376471e+00
-9.886964103849e+00
-9.941778805775e+00
-9.985884228850e+00
-9.995088636692e+00
-9.977875263322e+00
-9.879113438256e+00
-9.475916327828e+00
-8.449767987474e+00
-6.374943009768e+00
-6.242011022174e-01
5.340018106674e+00
7.463389657500e+00
8.461383782740e+00
8.920910951653e+00
9.359094986849e+00
9.664924515306e+00
9.956578521957e+00
9.970887487212e+00
9.800048348336e+00
9.467133562374e+00
9.040468980328e+00
7.972913849151e+00
4.908174440032e+00
-1.156171350288e+00
-6.749792058373e+00
-9.569541731677e+00
-9.993614981971e+00
-9.890069550797e+00
-9.509438532228e+00
-8.818400954877e+00
-7.876845621737e+00
-5.333287893934e+00
6.593220651723e-01
5.596040329599e+00
8.761749128177e+00
9.973140818876e+00
9.479443219839e+00
7.767495167250e+00
2.989082768435e+00
-3.145394665585e+00
-8.130987603919e+00
-9.978463627451e+00
-8.058353163485e+00
-2.992705626977e+00
3.149169853168e+00
8.128903949871e+00
9.986554245002e+00
8.053751966546e+00
2.997306506022e+00
-3.156622568926e+00
-8.132118601155e+00
-9.974389329219e+00
-8.052962830004e+00
-4.490244912094e+00
-1.231233837747e-02
</dep>
<dep tran.v(output) time>
-1.569159763741e-21
1.000172138105e-05
2.030045583121e-05
4.257504740114e-05
1.146526806084e-04
1.763653702145e-03
2.159549910825e-02
7.292427775070e-02
1.416472854366e-01
2.202200107446e-01
3.344371440938e-01
4.586634830400e-01
6.523843737211e-01
9.434063420261e-01
1.258486880443e+00
1.602340726643e+00
1.987696839044e+00
2.488275977683e+00
3.041227338189e+00
3.678081546066e+00
4.273545522933e+00
4.696353991022e+00
4.806223052588e+00
4.803727603457e+00
4.801630458428e+00
4.699526401312e+00
4.503944977363e+00
4.277110750457e+00
3.979986495101e+00
3.629901491415e+00
2.845996423819e+00
2.368732818714e+00
2.224125623024e+00
2.223230203393e+00
2.222389009617e+00
2.221590969616e+00
2.220024521474e+00
2.218549926801e+00
2.216662407140e+00
2.213972171767e+00
2.210639071599e+00
3.146904021768e+00
4.593769016580e+00
6.569170546700e+00
7.438184697251e+00
8.240234914091e+00
9.177816559814e+00
1.023579783377e+01
1.171334230089e+01
1.232335985636e+01
1.166611600030e+01
9.777195120778e+00
7.764561768515e+00
7.065427390010e+00
7.059406130603e+00
7.054450722772e+00
7.049937114645e+00
7.045158390499e+00
8.033231769458e+00
9.647349108651e+00
1.135731813675e+01
1.468316960989e+01
1.632289496229e+01
1.634849266438e+01
1.631539797137e+01
1.462782827749e+01
1.294150316165e+01
1.189353733333e+01
1.135018240809e+01
1.132795676375e+01
1.225595735706e+01
1.528582148398e+01
1.875513335181e+01
1.955360161781e+01
1.998811140726e+01
2.020540871998e+01
2.018260755868e+01
2.015207878705e+01
1.899495455733e+01
1.700922615804e+01
1.607995026678e+01
1.601813258533e+01
1.600284555168e+01
1.598912448696e+01
1.597098515297e+01
1.652688455154e+01
1.789801320828e+01
1.948036985992e+01
2.039056662415e+01
2.111814067223e+01
2.184867856275e+01
2.233915445108e+01
2.229417614069e+01
2.197758716127e+01
1.999845473255e+01
1.852489860017e+01
1.849971182510e+01
1.847658357025e+01
1.844256139164e+01
1.998912287065e+01
2.275201660287e+01
2.435588004959e+01
2.491197502485e+01
2.486183219968e+01
2.443428442347e+01
2.255727012015e+01
2.124143671527e+01
2.122384923860e+01
2.121125568181e+01
2.119974132561e+01
2.118828223995e+01
2.116543603197e+01
2.149034518988e+01
2.435782214729e+01
2.687467790657e+01
2.721909108844e+01
2.727647002192e+01
2.724738190578e+01
2.719256088740e+01
2.713479134777e+01
2.536624981135e+01
2.445222988554e+01
2.444758667359e+01
2.444302499847e+01
2.443886308806e+01
2.443558661233e+01
2.443182088496e+01
2.442794179565e+01
2.442419312420e+01
2.441892243991e+01
2.441226650714e+01
2.439897504177e+01
2.438056946619e+01
2.435621621039e+01
2.430798981056e+01
2.571535962253e+01
2.691969961165e+01
2.741910874144e+01
2.764277419791e+01
2.785867217166e+01
2.801091082154e+01
2.815782613863e+01
2.819476932350e+01
2.818647185301e+01
2.817520413792e+01
2.816481895850e+01
2.814631215449e+01
2.810929434055e+01
2.805268950701e+01
2.703354454704e+01
2.630304044303e+01
2.628092064573e+01
2.626651992422e+01
2.625273791946e+01
2.623800611402e+01
2.622368357212e+01
2.619510390964e+01
2.614322263043e+01
2.721090682891e+01
2.873283034438e+01
2.934552417376e+01
3.062419700106e+01
3.058825731969e+01
3.053144712089e+01
3.031996698853e+01
2.863801533508e+01
2.732361894742e+01
2.726917567934e+01
2.721504579041e+01
2.744603246462e+01
2.987239764776e+01
3.164353223712e+01
3.158003697522e+01
3.151654207700e+01
3.145313825774e+01
3.038798394755e+01
2.948745847793e+01
2.942872433745e+01
2.938524858854e+01
2.934192142949e+01
</dep>
