<Qucs Dataset 26.1.1>
<indep time 240>
0.000000000000e+00
2.500000000000e-06
2.580151915608e-06
2.740455746824e-06
3.061063409257e-06
3.702278734122e-06
4.984709383852e-06
7.549570683313e-06
1.267929328223e-05
2.293873848008e-05
4.345762887576e-05
6.428591088143e-05
8.344429367083e-05
1.036985211151e-04
1.237529927914e-04
1.442339543807e-04
1.672319249207e-04
1.959034404026e-04
2.357297386577e-04
2.947552782137e-04
3.835013685852e-04
5.219148515455e-04
7.516138757045e-04
1.001613875704e-03
1.251613875704e-03
1.501613875704e-03
1.751613875704e-03
2.001613875704e-03
2.251613875704e-03
2.501613875704e-03
2.751613875704e-03
3.001613875704e-03
3.251613875704e-03
3.501613875704e-03
3.751613875704e-03
4.001613875704e-03
4.251613875704e-03
4.471502351612e-03
4.563585001648e-03
4.602171307569e-03
4.640355436595e-03
4.716723694647e-03
4.796660312630e-03
4.837300689115e-03
4.867382452508e-03
4.898850869192e-03
4.935157599848e-03
5.007771061160e-03
5.125549412454e-03
5.200369939104e-03
5.242949784379e-03
5.282194042455e-03
5.320565507104e-03
5.377196125422e-03
5.431680899780e-03
5.531852298194e-03
5.700336700791e-03
5.950336700791e-03
6.200336700791e-03
6.450336700791e-03
6.700336700791e-03
6.950336700791e-03
7.200336700791e-03
7.450336700791e-03
7.700336700791e-03
7.950336700791e-03
8.200336700791e-03
8.450336700791e-03
8.700336700791e-03
8.950336700791e-03
9.200336700791e-03
9.450336700791e-03
9.700336700791e-03
9.950336700791e-03
1.020033670079e-02
1.045033670079e-02
1.070033670079e-02
1.095033670079e-02
1.120033670079e-02
1.145033670079e-02
1.170033670079e-02
1.195033670079e-02
1.220033670079e-02
1.245033670079e-02
1.270033670079e-02
1.295033670079e-02
1.320033670079e-02
1.345033670079e-02
1.370033670079e-02
1.395033670079e-02
1.420033670079e-02
1.445033670079e-02
1.470033670079e-02
1.495033670079e-02
1.517209792589e-02
1.528808223543e-02
1.538031652475e-02
1.547076270792e-02
1.561826519412e-02
1.578808686782e-02
1.603808686782e-02
1.628808686782e-02
1.653808686782e-02
1.678808686782e-02
1.703808686782e-02
1.728808686782e-02
1.753808686782e-02
1.778808686782e-02
1.803808686782e-02
1.828808686782e-02
1.853808686782e-02
1.878808686782e-02
1.903808686782e-02
1.928808686782e-02
1.953808686782e-02
1.978808686782e-02
2.003808686782e-02
2.028808686782e-02
2.053808686782e-02
2.078808686782e-02
2.103808686782e-02
2.128808686782e-02
2.153808686782e-02
2.178808686782e-02
2.203808686782e-02
2.228808686782e-02
2.253808686782e-02
2.278808686782e-02
2.303808686782e-02
2.328808686782e-02
2.353808686782e-02
2.378808686782e-02
2.403808686782e-02
2.428808686782e-02
2.453808686782e-02
2.478808686782e-02
2.503808686782e-02
2.528808686782e-02
2.553808686782e-02
2.578808686782e-02
2.603808686782e-02
2.628808686782e-02
2.653808686782e-02
2.678808686782e-02
2.703808686782e-02
2.728808686782e-02
2.753808686782e-02
2.778808686782e-02
2.803808686782e-02
2.828808686782e-02
2.853808686782e-02
2.878808686782e-02
2.903808686782e-02
2.928808686782e-02
2.953808686782e-02
2.978808686782e-02
3.003808686782e-02
3.028808686782e-02
3.053808686782e-02
3.078808686782e-02
3.103808686782e-02
3.128808686782e-02
3.153808686782e-02
3.178808686782e-02
3.203808686782e-02
3.228808686782e-02
3.253808686782e-02
3.278808686782e-02
3.303808686782e-02
3.328808686782e-02
3.353808686782e-02
3.378808686782e-02
3.399262347678e-02
3.418820891102e-02
3.439285512549e-02
3.464285512549e-02
3.489285512549e-02
3.514285512549e-02
3.536110380747e-02
3.547022656399e-02
3.555908478215e-02
3.564645178597e-02
3.582118579360e-02
3.607118579360e-02
3.632118579360e-02
3.657118579360e-02
3.682118579360e-02
3.707118579360e-02
3.732118579360e-02
3.757118579360e-02
3.782118579360e-02
3.807118579360e-02
3.832118579360e-02
3.857118579360e-02
3.882118579360e-02
3.907118579360e-02
3.932118579360e-02
3.957118579360e-02
3.982118579360e-02
4.007118579360e-02
4.032118579360e-02
4.057118579360e-02
4.082118579360e-02
4.107118579360e-02
4.132118579360e-02
4.157118579360e-02
4.182118579360e-02
4.207118579360e-02
4.232118579360e-02
4.257118579360e-02
4.282118579360e-02
4.307118579360e-02
4.332118579360e-02
4.357118579360e-02
4.382118579360e-02
4.407118579360e-02
4.432118579360e-02
4.457118579360e-02
4.482118579360e-02
4.507118579360e-02
4.532118579360e-02
4.557118579360e-02
4.582118579360e-02
4.607118579360e-02
4.632118579360e-02
4.657118579360e-02
4.682118579360e-02
4.707118579360e-02
4.732118579360e-02
4.757118579360e-02
4.782118579360e-02
4.807118579360e-02
4.832118579360e-02
4.857118579360e-02
4.882118579360e-02
4.907118579360e-02
4.932118579360e-02
4.957118579360e-02
4.978559289680e-02
5.000000000000e-02
</indep>
<dep tran.v(in) time>
0.000000000000e+00
1.884955398365e-01
1.945388499741e-01
2.066254698754e-01
2.307987080752e-01
2.791451772053e-01
3.758380795208e-01
5.692236854406e-01
9.559936629753e-01
1.729525165162e+00
3.276526233189e+00
4.846713994015e+00
6.290830935526e+00
7.817301348051e+00
9.328405420736e+00
1.087126288797e+01
1.260319035981e+01
1.476144846623e+01
1.775736178415e+01
2.219227699819e+01
2.884541907835e+01
3.917536674512e+01
5.614520135953e+01
7.427979686635e+01
9.195643272496e+01
1.090661265972e+02
1.255033915308e+02
1.411668863215e+02
1.559600403153e+02
1.697916487985e+02
1.825764353055e+02
1.942355773760e+02
2.046971925220e+02
2.138967814075e+02
2.217776255077e+02
2.282911367980e+02
2.333971573155e+02
2.366995800325e+02
2.377478364908e+02
2.381279915633e+02
2.384697375089e+02
2.390502378887e+02
2.395104719288e+02
2.396865575137e+02
2.397917331474e+02
2.398788373519e+02
2.399502051834e+02
2.399992847771e+02
2.398133387985e+02
2.395246618048e+02
2.393012799825e+02
2.390574764519e+02
2.387839610611e+02
2.383169106385e+02
2.377963585509e+02
2.366576459172e+02
2.342144836307e+02
2.293828575720e+02
2.231370099188e+02
2.155154483988e+02
2.065651624733e+02
1.963413336313e+02
1.849069951773e+02
1.723326436103e+02
1.586958039890e+02
1.440805519643e+02
1.285769954252e+02
1.122807189531e+02
9.529219451145e+01
7.771616200282e+01
5.966098351219e+01
4.123797521892e+01
2.256072109541e+01
3.744372624146e+00
-1.509506114948e+01
-3.384142885150e+01
-5.237915289123e+01
-7.059394203556e+01
-8.837349605236e+01
-1.056081980788e+02
-1.221917904459e+02
-1.380220297919e+02
-1.530013174273e+02
-1.670373010626e+02
-1.800434441914e+02
-1.919395596162e+02
-2.026523038296e+02
-2.121156292011e+02
-2.202711911830e+02
-2.270687080237e+02
-2.324662707714e+02
-2.364306016569e+02
-2.389372592620e+02
-2.399707892091e+02
-2.396493075072e+02
-2.390177602881e+02
-2.382889816168e+02
-2.373800479095e+02
-2.354870057339e+02
-2.326817105633e+02
-2.273498472194e+02
-2.206162964658e+02
-2.125225728822e+02
-2.031185769658e+02
-1.924622874787e+02
-1.806194039890e+02
-1.676629418118e+02
-1.536727818446e+02
-1.387351780760e+02
-1.229422258004e+02
-1.063912938204e+02
-8.918442413519e+01
-7.142770281840e+01
-5.323060596161e+01
-3.470532471810e+01
-1.596607360701e+01
2.871613657131e+00
2.169159646816e+01
4.037784337378e+01
5.881514744801e+01
7.688983658020e+01
9.449047430140e+01
1.115085468273e+02
1.278391320816e+02
1.433815465758e+02
1.580399661562e+02
1.717240167916e+02
1.843493317594e+02
1.958380717946e+02
2.061194049944e+02
2.151299435207e+02
2.228141344073e+02
2.291246020620e+02
2.340224403534e+02
2.374774524796e+02
2.394683371420e+02
2.399828198747e+02
2.390177287204e+02
2.365790137871e+02
2.326817105633e+02
2.273498472194e+02
2.206162964658e+02
2.125225728822e+02
2.031185769658e+02
1.924622874787e+02
1.806194039890e+02
1.676629418118e+02
1.536727818446e+02
1.387351780760e+02
1.229422258004e+02
1.063912938204e+02
8.918442413519e+01
7.142770281840e+01
5.323060596161e+01
3.470532471810e+01
1.596607360701e+01
-2.871613657132e+00
-2.169159646817e+01
-4.037784337379e+01
-5.881514744801e+01
-7.688983658020e+01
-9.449047430140e+01
-1.115085468273e+02
-1.278391320816e+02
-1.433815465758e+02
-1.580399661562e+02
-1.717240167916e+02
-1.843493317594e+02
-1.958380717946e+02
-2.061194049944e+02
-2.151299435207e+02
-2.228141344073e+02
-2.280810830963e+02
-2.322372722414e+02
-2.356474020196e+02
-2.384909133439e+02
-2.398640488811e+02
-2.397583427941e+02
-2.384573077007e+02
-2.373860013018e+02
-2.363075081258e+02
-2.350675800177e+02
-2.320575627420e+02
-2.265380443789e+02
-2.196218436407e+02
-2.113516012048e+02
-2.017783058659e+02
-1.909609801733e+02
-1.789663165369e+02
-1.658682660467e+02
-1.517475825395e+02
-1.366913247248e+02
-1.207923194387e+02
-1.041485893358e+02
-8.686274854661e+01
-6.904137002788e+01
-5.079432850434e+01
-3.223412305474e+01
-1.347518351758e+01
5.366835006918e+00
2.417576520895e+01
4.283564377921e+01
6.123142636127e+01
7.924969683830e+01
9.677936658112e+01
1.137123593466e+02
1.299442776034e+02
1.453750461780e+02
1.599095292508e+02
1.734581169005e+02
1.859372775788e+02
1.972700731104e+02
2.073866330423e+02
2.162245854184e+02
2.237294413235e+02
2.298549308252e+02
2.345632882439e+02
2.378254849903e+02
2.396214085368e+02
2.399399864175e+02
2.387792544937e+02
2.361463690638e+02
2.320575627420e+02
2.265380443789e+02
2.196218436407e+02
2.113516012048e+02
2.017783058659e+02
1.909609801733e+02
1.789663165369e+02
1.658682660467e+02
1.517475825395e+02
1.366913247248e+02
1.207923194387e+02
1.041485893358e+02
8.686274854661e+01
6.904137002788e+01
5.079432850434e+01
3.223412305474e+01
1.615369311207e+01
1.469576158977e-13
</dep>
<dep tran.v(out) time>
-2.238502519327e-30
-4.679551869365e-20
5.633260852346e-16
1.743415940041e-15
4.317166034981e-15
1.031929484896e-14
2.574558318587e-14
7.032388873840e-14
2.148701056850e-13
7.357385822307e-13
4.564419911185e-12
2.843983140231e-10
2.570185453908e-08
3.278874806962e-06
8.886929927968e-05
5.773272454053e-04
2.357542499572e-03
7.976622535515e-03
2.596575856164e-02
8.596687737379e-02
2.858589796271e-01
9.599376826239e-01
3.242711999570e+00
7.237850347335e+00
1.210329949598e+01
1.680051925934e+01
2.047169801700e+01
2.280152294489e+01
2.407887977255e+01
2.496711535497e+01
2.613152032943e+01
2.792736671758e+01
3.028132140951e+01
3.278403291521e+01
3.492188913801e+01
3.632525084144e+01
3.691912266596e+01
3.699207794903e+01
3.697506499591e+01
3.696793895465e+01
3.696091829889e+01
3.694690330387e+01
3.693269112070e+01
3.692563576557e+01
3.692038425526e+01
3.691496015110e+01
3.690877272019e+01
3.689646979535e+01
3.687600910660e+01
3.686250696769e+01
3.685470551484e+01
3.684749193367e+01
3.684042943486e+01
3.683000241961e+01
3.681997090351e+01
3.680153410948e+01
3.677054474371e+01
3.672461027176e+01
3.667873318204e+01
3.663291340286e+01
3.658715086264e+01
3.654144548986e+01
3.649579721311e+01
3.645020596107e+01
3.640467166250e+01
3.635919424625e+01
3.631377364127e+01
3.626840977658e+01
3.622310258131e+01
3.617785198465e+01
3.613265791592e+01
3.608752030448e+01
3.604243907982e+01
3.599741417149e+01
3.595244550915e+01
3.590753302253e+01
3.586267664144e+01
3.581787629582e+01
3.577313191565e+01
3.572844343102e+01
3.568381077211e+01
3.563923386918e+01
3.559471265257e+01
3.555024705272e+01
3.550583700016e+01
3.546148242550e+01
3.541718325943e+01
3.537296509410e+01
3.542868030294e+01
3.584001361325e+01
3.677221243866e+01
3.807315041396e+01
3.934357331505e+01
4.015232207404e+01
4.034337920127e+01
4.031998999401e+01
4.030139985255e+01
4.028317843370e+01
4.025348004031e+01
4.021931497840e+01
4.016907223635e+01
4.011889225846e+01
4.006877496639e+01
4.001872028179e+01
3.996872812648e+01
3.991879842232e+01
3.986893109132e+01
3.981912605553e+01
3.976938323717e+01
3.971970255849e+01
3.967008394187e+01
3.962052730978e+01
3.957103258479e+01
3.952159968957e+01
3.947222854687e+01
3.942291907955e+01
3.937367121057e+01
3.932448486297e+01
3.927535995991e+01
3.922629642463e+01
3.917729418045e+01
3.912835315083e+01
3.907947325927e+01
3.903065442943e+01
3.898189658500e+01
3.893319964982e+01
3.888456354777e+01
3.883598820290e+01
3.878747353926e+01
3.873901948110e+01
3.869062595266e+01
3.864229287837e+01
3.859402018265e+01
3.854580779016e+01
3.849765562546e+01
3.844956362190e+01
3.840153169572e+01
3.835355976385e+01
3.830564775937e+01
3.825779560723e+01
3.821000323288e+01
3.816227056171e+01
3.811459751908e+01
3.806698403057e+01
3.801943002172e+01
3.797193541826e+01
3.792450014597e+01
3.787712413074e+01
3.782980729854e+01
3.778254957544e+01
3.773535088759e+01
3.768821116126e+01
3.764113032278e+01
3.759410829859e+01
3.754714501522e+01
3.750024039929e+01
3.745339437751e+01
3.740660687668e+01
3.735987782370e+01
3.731320714554e+01
3.726659476931e+01
3.722004062214e+01
3.717354463132e+01
3.712710672418e+01
3.708072682818e+01
3.703440487083e+01
3.698814077977e+01
3.694193448269e+01
3.689578590743e+01
3.684969498183e+01
3.680366163823e+01
3.675768580040e+01
3.681461113228e+01
3.703514110702e+01
3.745252517083e+01
3.818707846577e+01
3.896116493626e+01
3.947499846528e+01
3.958761977345e+01
3.956602613157e+01
3.954845120287e+01
3.953117882698e+01
3.949665670092e+01
3.944731671745e+01
3.939803837047e+01
3.934882158292e+01
3.929966627795e+01
3.925057237872e+01
3.920153980855e+01
3.915256849080e+01
3.910365834897e+01
3.905480930662e+01
3.900602128744e+01
3.895729421520e+01
3.890862801375e+01
3.886002260706e+01
3.881147791918e+01
3.876299387426e+01
3.871457039654e+01
3.866620741036e+01
3.861790484016e+01
3.856966261045e+01
3.852148064587e+01
3.847335887113e+01
3.842529721104e+01
3.837729559050e+01
3.832935393450e+01
3.828147216815e+01
3.823365021662e+01
3.818588800519e+01
3.813818545924e+01
3.809054250423e+01
3.804295906570e+01
3.799543506935e+01
3.794797044085e+01
3.790056510612e+01
3.785321899101e+01
3.780595210118e+01
3.775874425801e+01
3.771341264981e+01
3.766813767064e+01
3.762108190955e+01
3.757408493137e+01
3.752714666157e+01
3.748026702794e+01
3.743344595727e+01
3.738668337637e+01
3.733997921220e+01
3.729333339175e+01
3.724674584218e+01
3.720021649066e+01
3.715374526451e+01
3.710733209111e+01
3.706097689794e+01
3.701467961256e+01
3.696844016266e+01
3.692225847596e+01
3.687613448031e+01
3.683662313320e+01
3.679715412096e+01
</dep>
<indep v(in) 1>
0.000000000000e+00+j0.000000000000e+00
</indep>
<indep v(out) 1>
-2.238500000000e-30+j0.000000000000e+00
</indep>
