<Qucs Dataset 26.1.1>
<indep frequency 200>
2.000000000000e+04
2.040201005025e+04
2.080402010050e+04
2.120603015075e+04
2.160804020101e+04
2.201005025126e+04
2.241206030151e+04
2.281407035176e+04
2.321608040201e+04
2.361809045226e+04
2.402010050251e+04
2.442211055276e+04
2.482412060302e+04
2.522613065327e+04
2.562814070352e+04
2.603015075377e+04
2.643216080402e+04
2.683417085427e+04
2.723618090452e+04
2.763819095477e+04
2.804020100503e+04
2.844221105528e+04
2.884422110553e+04
2.924623115578e+04
2.964824120603e+04
3.005025125628e+04
3.045226130653e+04
3.085427135678e+04
3.125628140704e+04
3.165829145729e+04
3.206030150754e+04
3.246231155779e+04
3.286432160804e+04
3.326633165829e+04
3.366834170854e+04
3.407035175879e+04
3.447236180905e+04
3.487437185930e+04
3.527638190955e+04
3.567839195980e+04
3.608040201005e+04
3.648241206030e+04
3.688442211055e+04
3.728643216080e+04
3.768844221106e+04
3.809045226131e+04
3.849246231156e+04
3.889447236181e+04
3.929648241206e+04
3.969849246231e+04
4.010050251256e+04
4.050251256281e+04
4.090452261307e+04
4.130653266332e+04
4.170854271357e+04
4.211055276382e+04
4.251256281407e+04
4.291457286432e+04
4.331658291457e+04
4.371859296482e+04
4.412060301508e+04
4.452261306533e+04
4.492462311558e+04
4.532663316583e+04
4.572864321608e+04
4.613065326633e+04
4.653266331658e+04
4.693467336683e+04
4.733668341709e+04
4.773869346734e+04
4.814070351759e+04
4.854271356784e+04
4.894472361809e+04
4.934673366834e+04
4.974874371859e+04
5.015075376884e+04
5.055276381910e+04
5.095477386935e+04
5.135678391960e+04
5.175879396985e+04
5.216080402010e+04
5.256281407035e+04
5.296482412060e+04
5.336683417085e+04
5.376884422111e+04
5.417085427136e+04
5.457286432161e+04
5.497487437186e+04
5.537688442211e+04
5.577889447236e+04
5.618090452261e+04
5.658291457286e+04
5.698492462312e+04
5.738693467337e+04
5.778894472362e+04
5.819095477387e+04
5.859296482412e+04
5.899497487437e+04
5.939698492462e+04
5.979899497487e+04
6.020100502513e+04
6.060301507538e+04
6.100502512563e+04
6.140703517588e+04
6.180904522613e+04
6.221105527638e+04
6.261306532663e+04
6.301507537688e+04
6.341708542714e+04
6.381909547739e+04
6.422110552764e+04
6.462311557789e+04
6.502512562814e+04
6.542713567839e+04
6.582914572864e+04
6.623115577889e+04
6.663316582915e+04
6.703517587940e+04
6.743718592965e+04
6.783919597990e+04
6.824120603015e+04
6.864321608040e+04
6.904522613065e+04
6.944723618090e+04
6.984924623116e+04
7.025125628141e+04
7.065326633166e+04
7.105527638191e+04
7.145728643216e+04
7.185929648241e+04
7.226130653266e+04
7.266331658291e+04
7.306532663317e+04
7.346733668342e+04
7.386934673367e+04
7.427135678392e+04
7.467336683417e+04
7.507537688442e+04
7.547738693467e+04
7.587939698492e+04
7.628140703518e+04
7.668341708543e+04
7.708542713568e+04
7.748743718593e+04
7.788944723618e+04
7.829145728643e+04
7.869346733668e+04
7.909547738693e+04
7.949748743719e+04
7.989949748744e+04
8.030150753769e+04
8.070351758794e+04
8.110552763819e+04
8.150753768844e+04
8.190954773869e+04
8.231155778894e+04
8.271356783920e+04
8.311557788945e+04
8.351758793970e+04
8.391959798995e+04
8.432160804020e+04
8.472361809045e+04
8.512562814070e+04
8.552763819095e+04
8.592964824121e+04
8.633165829146e+04
8.673366834171e+04
8.713567839196e+04
8.753768844221e+04
8.793969849246e+04
8.834170854271e+04
8.874371859296e+04
8.914572864322e+04
8.954773869347e+04
8.994974874372e+04
9.035175879397e+04
9.075376884422e+04
9.115577889447e+04
9.155778894472e+04
9.195979899497e+04
9.236180904523e+04
9.276381909548e+04
9.316582914573e+04
9.356783919598e+04
9.396984924623e+04
9.437185929648e+04
9.477386934673e+04
9.517587939698e+04
9.557788944724e+04
9.597989949749e+04
9.638190954774e+04
9.678391959799e+04
9.718592964824e+04
9.758793969849e+04
9.798994974874e+04
9.839195979899e+04
9.879396984925e+04
9.919597989950e+04
9.959798994975e+04
1.000000000000e+05
</indep>
<indep Number 2>
1
2
</indep>
<dep ac.v(is) frequency Number>
1.107401377994e+01-j4.824959452584e-01
1.112242112200e+01-j4.965537391175e-01
1.117222073201e+01-j5.109324988644e-01
1.122344372907e+01-j5.256456868039e-01
1.127612250572e+01-j5.407073693995e-01
1.133029078290e+01-j5.561322527200e-01
1.138598366815e+01-j5.719357202346e-01
1.144323771693e+01-j5.881338731367e-01
1.150209099757e+01-j6.047435733958e-01
1.156258315982e+01-j6.217824897521e-01
1.162475550746e+01-j6.392691468895e-01
1.168865107499e+01-j6.572229780409e-01
1.175431470890e+01-j6.756643813064e-01
1.182179315367e+01-j6.946147799874e-01
1.189113514289e+01-j7.140966872690e-01
1.196239149574e+01-j7.341337756153e-01
1.203561521937e+01-j7.547509512729e-01
1.211086161740e+01-j7.759744343204e-01
1.218818840509e+01-j7.978318447395e-01
1.226765583153e+01-j8.203522950325e-01
1.234932680947e+01-j8.435664899607e-01
1.243326705319e+01-j8.675068340358e-01
1.251954522514e+01-j8.922075474611e-01
1.260823309179e+01-j9.177047912870e-01
1.269940568953e+01-j9.440368026274e-01
1.279314150123e+01-j9.712440408673e-01
1.288952264427e+01-j9.993693458930e-01
1.298863507102e+01-j1.028458109484e+00
1.309056878238e+01-j1.058558461127e+00
1.319541805576e+01-j1.089721469648e+00
1.330328168828e+01-j1.122001362220e+00
1.341426325644e+01-j1.155455762460e+00
1.352847139363e+01-j1.190145949535e+00
1.364602008667e+01-j1.226137140420e+00
1.376702899304e+01-j1.263498797667e+00
1.389162378022e+01-j1.302304965356e+00
1.401993648905e+01-j1.342634636192e+00
1.415210592294e+01-j1.384572153061e+00
1.428827806493e+01-j1.428207648774e+00
1.442860652487e+01-j1.473637528173e+00
1.457325301913e+01-j1.520964997279e+00
1.472238788541e+01-j1.570300644774e+00
1.487619063553e+01-j1.621763081754e+00
1.503485054911e+01-j1.675479646464e+00
1.519856731167e+01-j1.731587181594e+00
1.536755170042e+01-j1.790232892726e+00
1.554202632182e+01-j1.851575297644e+00
1.572222640488e+01-j1.915785277565e+00
1.590840065461e+01-j1.983047242828e+00
1.610081217046e+01-j2.053560427361e+00
1.629973943462e+01-j2.127540328218e+00
1.650547737561e+01-j2.205220308854e+00
1.671833851271e+01-j2.286853387459e+00
1.693865418708e+01-j2.372714234834e+00
1.716677588571e+01-j2.463101409935e+00
1.740307666422e+01-j2.558339865419e+00
1.764795267484e+01-j2.658783760534e+00
1.790182480544e+01-j2.764819624422e+00
1.816514043550e+01-j2.876869919740e+00
1.843837531367e+01-j2.995397064412e+00
1.872203556109e+01-j3.120907978733e+00
1.901665980254e+01-j3.253959236010e+00
1.932282142525e+01-j3.395162907969e+00
1.964113096192e+01-j3.545193211515e+00
1.997223858954e+01-j3.704794081611e+00
2.031683672942e+01-j3.874787816642e+00
2.067566272488e+01-j4.056084968243e+00
2.104950156118e+01-j4.249695678048e+00
2.143918857649e+01-j4.456742700093e+00
2.184561209127e+01-j4.678476390827e+00
2.226971585496e+01-j4.916292000237e+00
2.271250117080e+01-j5.171749659019e+00
2.317502850924e+01-j5.446597529975e+00
2.365841835266e+01-j5.742798679021e+00
2.416385092447e+01-j6.062562324763e+00
2.469256433555e+01-j6.408380248337e+00
2.524585052151e+01-j6.783069289752e+00
2.582504813005e+01-j7.189821026203e+00
2.643153123199e+01-j7.632259923614e+00
2.706669234692e+01-j8.114511475914e+00
2.773191776010e+01-j8.641282095042e+00
2.842855241860e+01-j9.217952781356e+00
2.915785076765e+01-j9.850688872909e+00
2.992090864433e+01-j1.054656841206e+01
3.071856967434e+01-j1.131373182298e+01
3.155129737896e+01-j1.216155556741e+01
3.241900120863e+01-j1.310085207558e+01
3.332080075024e+01-j1.414409726757e+01
3.425470713547e+01-j1.530568495341e+01
3.521719391343e+01-j1.660220363688e+01
3.620262108883e+01-j1.805272466025e+01
3.720246558499e+01-j1.967907953769e+01
3.820429945412e+01-j2.150608620405e+01
3.919044513079e+01-j2.356165506703e+01
4.013622837502e+01-j2.587666109893e+01
4.100775160618e+01-j2.848440130184e+01
4.175913720755e+01-j3.141936099840e+01
4.232926722553e+01-j3.471488391610e+01
4.263821373405e+01-j3.839918772484e+01
4.258387218802e+01-j4.248902487440e+01
4.203984625093e+01-j4.698025308198e+01
4.085642254337e+01-j5.183484468673e+01
3.886741770017e+01-j5.696474928101e+01
3.590635568325e+01-j6.221491127488e+01
3.183488967362e+01-j6.735077522815e+01
2.658321029720e+01-j7.205902505845e+01
2.019542861247e+01-j7.597166356276e+01
1.286416028001e+01-j7.871902179557e+01
4.933637956819e+00-j8.000468652454e+01
-3.142505106588e+00-j7.967910661218e+01
-1.088252275591e+01-j7.778089446551e+01
-1.786863302192e+01-j7.452590572621e+01
-2.381497712786e+01-j7.024951747518e+01
-2.859106159974e+01-j6.532885020566e+01
-3.220364865037e+01-j6.011471048660e+01
-3.475545167989e+01-j5.489021458231e+01
-3.640034125092e+01-j4.985716648315e+01
-3.730735823867e+01-j4.514184881369e+01
-3.763742325554e+01-j4.081018603397e+01
-3.753132251339e+01-j3.688483548374e+01
-3.710560637217e+01-j3.336020748873e+01
-3.645313381802e+01-j3.021401016783e+01
-3.564586025330e+01-j2.741535888956e+01
-3.473837573470e+01-j2.493008110176e+01
-3.377139012725e+01-j2.272396042946e+01
-3.277480279878e+01-j2.076456903802e+01
-3.177024419923e+01-j1.902218356815e+01
-3.077310192282e+01-j1.747013435061e+01
-2.979409673347e+01-j1.608482216596e+01
-2.884048866953e+01-j1.484555327732e+01
-2.791698987406e+01-j1.373428631434e+01
-2.702645018222e+01-j1.273534698032e+01
-2.617036923648e+01-j1.183514254100e+01
-2.534927746844e+01-j1.102189312205e+01
-2.456301858618e+01-j1.028538780653e+01
-2.381095838882e+01-j9.616768231713e+00
-2.309213861980e+01-j9.008339421586e+00
-2.240538988633e+01-j8.453406049887e+00
-2.174941412620e+01-j7.946131632649e+00
-2.112284443826e+01-j7.481417942114e+00
-2.052428810169e+01-j7.054801995385e+00
-1.995235712354e+01-j6.662368169229e+00
-1.940568954914e+01-j6.300673249009e+00
-1.888296394658e+01-j5.966682490388e+00
-1.838290886411e+01-j5.657715033153e+00
-1.790430860274e+01-j5.371397245370e+00
-1.744600630575e+01-j5.105622788405e+00
-1.700690511236e+01-j4.858518378270e+00
-1.658596793272e+01-j4.628414377812e+00
-1.618221625888e+01-j4.413819489723e+00
-1.579472831956e+01-j4.213398935069e+00
-1.542263680647e+01-j4.025955598730e+00
-1.506512633990e+01-j3.850413704492e+00
-1.472143079616e+01-j3.685804650780e+00
-1.439083058541e+01-j3.531254695286e+00
-1.407264994330e+01-j3.385974224782e+00
-1.376625428075e+01-j3.249248386687e+00
-1.347104762200e+01-j3.120428892797e+00
-1.318647015067e+01-j2.998926833993e+00
-1.291199587558e+01-j2.884206368669e+00
-1.264713042275e+01-j2.775779167769e+00
-1.239140895535e+01-j2.673199516323e+00
-1.214439422095e+01-j2.576059985736e+00
-1.190567472302e+01-j2.483987603260e+00
-1.167486301223e+01-j2.396640455384e+00
-1.145159409237e+01-j2.313704670657e+00
-1.123552393502e+01-j2.234891734901e+00
-1.102632809688e+01-j2.159936098160e+00
-1.082370043348e+01-j2.088593038136e+00
-1.062735190322e+01-j2.020636749553e+00
-1.043700945582e+01-j1.955858632834e+00
-1.025241499917e+01-j1.894065758950e+00
-1.007332443946e+01-j1.835079490220e+00
-9.899506788991e+00-j1.778734239396e+00
-9.730743337089e+00-j1.724876351550e+00
-9.566826879337e+00-j1.673363095221e+00
-9.407561000908e+00-j1.624061750856e+00
-9.252759409973e+00-j1.576848786104e+00
-9.102245317483e+00-j1.531609108666e+00
-8.955850859870e+00-j1.488235388570e+00
-8.813416561473e+00-j1.446627442649e+00
-8.674790833730e+00-j1.406691674811e+00
-8.539829508422e+00-j1.368340566458e+00
-8.408395402417e+00-j1.331492212011e+00
-8.280357911613e+00-j1.296069895061e+00
-8.155592631913e+00-j1.262001701168e+00
-8.033981005261e+00-j1.229220163752e+00
-7.915409988890e+00-j1.197661939899e+00
-7.799771746124e+00-j1.167267513253e+00
-7.686963357151e+00-j1.137980921442e+00
-7.576886548338e+00-j1.109749505773e+00
-7.469447438775e+00-j1.082523681146e+00
-7.364556302811e+00-j1.056256724355e+00
-7.262127347454e+00-j1.030904579118e+00
-7.162078503599e+00-j1.006425676365e+00
-7.064331230120e+00-j9.827807684166e-01
-6.968810329930e+00-j9.599327758680e-01
-6.875443777190e+00-j9.378466460739e-01
-6.784162554906e+00-j9.164892222424e-01
-6.694900502217e+00-j8.958291222479e-01
0.000000000000e+00+j0.000000000000e+00
0.000000000000e+00+j0.000000000000e+00
0.000000000000e+00+j0.000000000000e+00
0.000000000000e+00+j0.000000000000e+00
0.000000000000e+00+j0.000000000000e+00
0.000000000000e+00+j0.000000000000e+00
0.000000000000e+00+j0.000000000000e+00
0.000000000000e+00+j0.000000000000e+00
0.000000000000e+00+j0.000000000000e+00
0.000000000000e+00+j0.000000000000e+00
0.000000000000e+00+j0.000000000000e+00
0.000000000000e+00+j0.000000000000e+00
0.000000000000e+00+j0.000000000000e+00
0.000000000000e+00+j0.000000000000e+00
0.000000000000e+00+j0.000000000000e+00
0.000000000000e+00+j0.000000000000e+00
0.000000000000e+00+j0.000000000000e+00
0.000000000000e+00+j0.000000000000e+00
0.000000000000e+00+j0.000000000000e+00
0.000000000000e+00+j0.000000000000e+00
0.000000000000e+00+j0.000000000000e+00
0.000000000000e+00+j0.000000000000e+00
0.000000000000e+00+j0.000000000000e+00
0.000000000000e+00+j0.000000000000e+00
0.000000000000e+00+j0.000000000000e+00
0.000000000000e+00+j0.000000000000e+00
0.000000000000e+00+j0.000000000000e+00
0.000000000000e+00+j0.000000000000e+00
0.000000000000e+00+j0.000000000000e+00
0.000000000000e+00+j0.000000000000e+00
0.000000000000e+00+j0.000000000000e+00
0.000000000000e+00+j0.000000000000e+00
0.000000000000e+00+j0.000000000000e+00
0.000000000000e+00+j0.000000000000e+00
0.000000000000e+00+j0.000000000000e+00
0.000000000000e+00+j0.000000000000e+00
0.000000000000e+00+j0.000000000000e+00
0.000000000000e+00+j0.000000000000e+00
0.000000000000e+00+j0.000000000000e+00
0.000000000000e+00+j0.000000000000e+00
0.000000000000e+00+j0.000000000000e+00
0.000000000000e+00+j0.000000000000e+00
0.000000000000e+00+j0.000000000000e+00
0.000000000000e+00+j0.000000000000e+00
0.000000000000e+00+j0.000000000000e+00
0.000000000000e+00+j0.000000000000e+00
0.000000000000e+00+j0.000000000000e+00
0.000000000000e+00+j0.000000000000e+00
0.000000000000e+00+j0.000000000000e+00
0.000000000000e+00+j0.000000000000e+00
0.000000000000e+00+j0.000000000000e+00
0.000000000000e+00+j0.000000000000e+00
0.000000000000e+00+j0.000000000000e+00
0.000000000000e+00+j0.000000000000e+00
0.000000000000e+00+j0.000000000000e+00
0.000000000000e+00+j0.000000000000e+00
0.000000000000e+00+j0.000000000000e+00
0.000000000000e+00+j0.000000000000e+00
0.000000000000e+00+j0.000000000000e+00
0.000000000000e+00+j0.000000000000e+00
0.000000000000e+00+j0.000000000000e+00
0.000000000000e+00+j0.000000000000e+00
0.000000000000e+00+j0.000000000000e+00
0.000000000000e+00+j0.000000000000e+00
0.000000000000e+00+j0.000000000000e+00
0.000000000000e+00+j0.000000000000e+00
0.000000000000e+00+j0.000000000000e+00
0.000000000000e+00+j0.000000000000e+00
0.000000000000e+00+j0.000000000000e+00
0.000000000000e+00+j0.000000000000e+00
0.000000000000e+00+j0.000000000000e+00
0.000000000000e+00+j0.000000000000e+00
0.000000000000e+00+j0.000000000000e+00
0.000000000000e+00+j0.000000000000e+00
0.000000000000e+00+j0.000000000000e+00
0.000000000000e+00+j0.000000000000e+00
0.000000000000e+00+j0.000000000000e+00
0.000000000000e+00+j0.000000000000e+00
0.000000000000e+00+j0.000000000000e+00
0.000000000000e+00+j0.000000000000e+00
0.000000000000e+00+j0.000000000000e+00
0.000000000000e+00+j0.000000000000e+00
0.000000000000e+00+j0.000000000000e+00
0.000000000000e+00+j0.000000000000e+00
0.000000000000e+00+j0.000000000000e+00
0.000000000000e+00+j0.000000000000e+00
0.000000000000e+00+j0.000000000000e+00
0.000000000000e+00+j0.000000000000e+00
0.000000000000e+00+j0.000000000000e+00
0.000000000000e+00+j0.000000000000e+00
0.000000000000e+00+j0.000000000000e+00
0.000000000000e+00+j0.000000000000e+00
0.000000000000e+00+j0.000000000000e+00
0.000000000000e+00+j0.000000000000e+00
0.000000000000e+00+j0.000000000000e+00
0.000000000000e+00+j0.000000000000e+00
0.000000000000e+00+j0.000000000000e+00
0.000000000000e+00+j0.000000000000e+00
0.000000000000e+00+j0.000000000000e+00
0.000000000000e+00+j0.000000000000e+00
0.000000000000e+00+j0.000000000000e+00
0.000000000000e+00+j0.000000000000e+00
0.000000000000e+00+j0.000000000000e+00
0.000000000000e+00+j0.000000000000e+00
0.000000000000e+00+j0.000000000000e+00
0.000000000000e+00+j0.000000000000e+00
0.000000000000e+00+j0.000000000000e+00
0.000000000000e+00+j0.000000000000e+00
0.000000000000e+00+j0.000000000000e+00
0.000000000000e+00+j0.000000000000e+00
0.000000000000e+00+j0.000000000000e+00
0.000000000000e+00+j0.000000000000e+00
0.000000000000e+00+j0.000000000000e+00
0.000000000000e+00+j0.000000000000e+00
0.000000000000e+00+j0.000000000000e+00
0.000000000000e+00+j0.000000000000e+00
0.000000000000e+00+j0.000000000000e+00
0.000000000000e+00+j0.000000000000e+00
0.000000000000e+00+j0.000000000000e+00
0.000000000000e+00+j0.000000000000e+00
0.000000000000e+00+j0.000000000000e+00
0.000000000000e+00+j0.000000000000e+00
0.000000000000e+00+j0.000000000000e+00
0.000000000000e+00+j0.000000000000e+00
0.000000000000e+00+j0.000000000000e+00
0.000000000000e+00+j0.000000000000e+00
0.000000000000e+00+j0.000000000000e+00
0.000000000000e+00+j0.000000000000e+00
0.000000000000e+00+j0.000000000000e+00
0.000000000000e+00+j0.000000000000e+00
0.000000000000e+00+j0.000000000000e+00
0.000000000000e+00+j0.000000000000e+00
0.000000000000e+00+j0.000000000000e+00
0.000000000000e+00+j0.000000000000e+00
0.000000000000e+00+j0.000000000000e+00
0.000000000000e+00+j0.000000000000e+00
0.000000000000e+00+j0.000000000000e+00
0.000000000000e+00+j0.000000000000e+00
0.000000000000e+00+j0.000000000000e+00
0.000000000000e+00+j0.000000000000e+00
0.000000000000e+00+j0.000000000000e+00
0.000000000000e+00+j0.000000000000e+00
0.000000000000e+00+j0.000000000000e+00
0.000000000000e+00+j0.000000000000e+00
0.000000000000e+00+j0.000000000000e+00
0.000000000000e+00+j0.000000000000e+00
0.000000000000e+00+j0.000000000000e+00
0.000000000000e+00+j0.000000000000e+00
0.000000000000e+00+j0.000000000000e+00
0.000000000000e+00+j0.000000000000e+00
0.000000000000e+00+j0.000000000000e+00
0.000000000000e+00+j0.000000000000e+00
0.000000000000e+00+j0.000000000000e+00
0.000000000000e+00+j0.000000000000e+00
0.000000000000e+00+j0.000000000000e+00
0.000000000000e+00+j0.000000000000e+00
0.000000000000e+00+j0.000000000000e+00
0.000000000000e+00+j0.000000000000e+00
0.000000000000e+00+j0.000000000000e+00
0.000000000000e+00+j0.000000000000e+00
0.000000000000e+00+j0.000000000000e+00
0.000000000000e+00+j0.000000000000e+00
0.000000000000e+00+j0.000000000000e+00
0.000000000000e+00+j0.000000000000e+00
0.000000000000e+00+j0.000000000000e+00
0.000000000000e+00+j0.000000000000e+00
0.000000000000e+00+j0.000000000000e+00
0.000000000000e+00+j0.000000000000e+00
0.000000000000e+00+j0.000000000000e+00
0.000000000000e+00+j0.000000000000e+00
0.000000000000e+00+j0.000000000000e+00
0.000000000000e+00+j0.000000000000e+00
0.000000000000e+00+j0.000000000000e+00
0.000000000000e+00+j0.000000000000e+00
0.000000000000e+00+j0.000000000000e+00
0.000000000000e+00+j0.000000000000e+00
0.000000000000e+00+j0.000000000000e+00
0.000000000000e+00+j0.000000000000e+00
0.000000000000e+00+j0.000000000000e+00
0.000000000000e+00+j0.000000000000e+00
0.000000000000e+00+j0.000000000000e+00
0.000000000000e+00+j0.000000000000e+00
0.000000000000e+00+j0.000000000000e+00
0.000000000000e+00+j0.000000000000e+00
0.000000000000e+00+j0.000000000000e+00
0.000000000000e+00+j0.000000000000e+00
0.000000000000e+00+j0.000000000000e+00
0.000000000000e+00+j0.000000000000e+00
0.000000000000e+00+j0.000000000000e+00
0.000000000000e+00+j0.000000000000e+00
0.000000000000e+00+j0.000000000000e+00
0.000000000000e+00+j0.000000000000e+00
0.000000000000e+00+j0.000000000000e+00
0.000000000000e+00+j0.000000000000e+00
0.000000000000e+00+j0.000000000000e+00
0.000000000000e+00+j0.000000000000e+00
0.000000000000e+00+j0.000000000000e+00
0.000000000000e+00+j0.000000000000e+00
0.000000000000e+00+j0.000000000000e+00
0.000000000000e+00+j0.000000000000e+00
</dep>
<dep ac.v(vs) frequency Number>
1.000000000000e+01+j0.000000000000e+00
1.000000000000e+01+j0.000000000000e+00
1.000000000000e+01+j0.000000000000e+00
1.000000000000e+01+j0.000000000000e+00
1.000000000000e+01+j0.000000000000e+00
1.000000000000e+01+j0.000000000000e+00
1.000000000000e+01+j0.000000000000e+00
1.000000000000e+01+j0.000000000000e+00
1.000000000000e+01+j0.000000000000e+00
